T412C 000:005.199   SEGGER J-Link V7.62a Log File
T412C 000:005.324   DLL Compiled: Feb 23 2022 16:58:13
T412C 000:005.334   Logging started @ 2022-05-27 02:43
T412C 000:005.353 - 5.357ms
T412C 000:005.365 JLINK_SetWarnOutHandler(...)
T412C 000:005.373 - 0.012ms
T412C 000:005.382 JLINK_OpenEx(...)
T412C 000:007.043   Firmware: J-Link EDU Mini V1 compiled Mar  3 2022 10:17:12
T412C 000:007.575   Firmware: J-Link EDU Mini V1 compiled Mar  3 2022 10:17:12
T412C 000:036.345   Hardware: V1.00
T412C 000:036.392   S/N: 801015662
T412C 000:036.404   OEM: SEGGER
T412C 000:036.415   Feature(s): FlashBP, GDB
T412C 000:038.506   USB speed mode: Full speed (12 MBit/s)
T412C 000:039.031   TELNET listener socket opened on port 19021
T412C 000:039.552   WEBSRV WEBSRV_Init(): Starting webserver thread(s)
T412C 000:039.672   WEBSRV Webserver running on local port 19080
T412C 000:058.146 - 52.804ms returns "O.K."
T412C 000:058.223 JLINK_GetEmuCaps()
T412C 000:058.231 - 0.011ms returns 0xB8EA5A33
T412C 000:058.271 JLINK_TIF_GetAvailable(...)
T412C 000:058.480 - 0.222ms
T412C 000:058.499 JLINK_SetErrorOutHandler(...)
T412C 000:058.504 - 0.008ms
T412C 000:058.523 JLINK_ExecCommand("ProjectFile = "C:\Documents\UNIVERSITY\Third-year\Embedded_system_des_impl\Laboratory_project\HMS_Project\JLinkSettings.ini"", ...). 
T412C 000:067.255   Ref file found at: C:\Keil_v5\ARM\Segger\JLinkDevices.ref
T412C 000:067.332   XML referenced by ref file: C:\Program Files (x86)\SEGGER\JLink\JLinkDevices.xml
T412C 000:067.789   C:\Program Files (x86)\SEGGER\JLink\JLinkDevices.xml evaluated successfully.
T412C 000:086.047 - 27.540ms returns 0x00
T412C 000:086.103 JLINK_ExecCommand("Device = STM32F439IITx", ...). 
T412C 000:086.726   Device "STM32F439II" selected.
T412C 000:087.210 - 1.106ms returns 0x00
T412C 000:087.224 JLINK_ExecCommand("DisableConnectionTimeout", ...). 
T412C 000:087.232 - 0.003ms returns 0x01
T412C 000:087.239 JLINK_GetHardwareVersion()
T412C 000:087.244 - 0.008ms returns 10000
T412C 000:087.250 JLINK_GetDLLVersion()
T412C 000:087.257 - 0.009ms returns 76201
T412C 000:087.263 JLINK_GetOEMString(...)
T412C 000:087.270 JLINK_GetFirmwareString(...)
T412C 000:087.276 - 0.008ms
T412C 000:087.294 JLINK_GetDLLVersion()
T412C 000:087.299 - 0.007ms returns 76201
T412C 000:087.305 JLINK_GetCompileDateTime()
T412C 000:087.310 - 0.007ms
T412C 000:087.423 JLINK_GetFirmwareString(...)
T412C 000:087.439 - 0.018ms
T412C 000:087.453 JLINK_GetHardwareVersion()
T412C 000:087.459 - 0.008ms returns 10000
T412C 000:087.468 JLINK_GetSN()
T412C 000:087.474 - 0.008ms returns 801015662
T412C 000:087.482 JLINK_GetOEMString(...)
T412C 000:087.493 JLINK_TIF_Select(JLINKARM_TIF_JTAG)
T412C 000:088.654 - 1.175ms returns 0x00
T412C 000:088.674 JLINK_HasError()
T412C 000:088.685 JLINK_SetSpeed(5000)
T412C 000:088.846 - 0.173ms
T412C 000:088.864 JLINK_GetIdData(pIdData)
T412C 000:089.184   InitTarget() start
T412C 000:089.207    J-Link Script File: Executing InitTarget()
T412C 000:090.774   TotalIRLen = 9, IRPrint = 0x0011
T412C 000:091.540   JTAG chain detection found 2 devices:
T412C 000:091.572    #0 Id: 0x4BA00477, IRLen: 04, CoreSight JTAG-DP
T412C 000:091.587    #1 Id: 0x06419041, IRLen: 05, STM32 Boundary Scan
T412C 000:099.586   InitTarget() end
T412C 000:100.901   TotalIRLen = 9, IRPrint = 0x0011
T412C 000:101.541   JTAG chain detection found 2 devices:
T412C 000:101.553    #0 Id: 0x4BA00477, IRLen: 04, CoreSight JTAG-DP
T412C 000:101.563    #1 Id: 0x06419041, IRLen: 05, STM32 Boundary Scan
T412C 000:102.951   DPv0 detected
T412C 000:102.963   Scanning AP map to find all available APs
T412C 000:103.512   AP[1]: Stopped AP scan as end of AP map has been reached
T412C 000:103.524   AP[0]: AHB-AP (IDR: 0x24770011)
T412C 000:103.534   Iterating through AP map to find AHB-AP to use
T412C 000:104.381   AP[0]: Core found
T412C 000:104.391   AP[0]: AHB-AP ROM base: 0xE00FF000
T412C 000:104.845   CPUID register: 0x410FC241. Implementer code: 0x41 (ARM)
T412C 000:104.855   Found Cortex-M4 r0p1, Little endian.
T412C 000:105.161   -- Max. mem block: 0x00002BB8
T412C 000:105.292   CPU_ReadMem(4 bytes @ 0xE000EDF0)
T412C 000:106.785   CPU_ReadMem(4 bytes @ 0xE0002000)
T412C 000:107.237   FPUnit: 6 code (BP) slots and 2 literal slots
T412C 000:107.247   CPU_ReadMem(4 bytes @ 0xE000EDFC)
T412C 000:107.645   CPU_WriteMem(4 bytes @ 0xE000EDFC)
T412C 000:107.990   CPU_ReadMem(4 bytes @ 0xE0001000)
T412C 000:108.397   CPU_WriteMem(4 bytes @ 0xE0001000)
T412C 000:108.880   CPU_ReadMem(4 bytes @ 0xE000ED88)
T412C 000:109.283   CPU_WriteMem(4 bytes @ 0xE000ED88)
T412C 000:109.740   CPU_ReadMem(4 bytes @ 0xE000ED88)
T412C 000:110.124   CPU_WriteMem(4 bytes @ 0xE000ED88)
T412C 000:110.517   CoreSight components:
T412C 000:110.530   ROMTbl[0] @ E00FF000
T412C 000:110.539   CPU_ReadMem(64 bytes @ 0xE00FF000)
T412C 000:111.350   CPU_ReadMem(32 bytes @ 0xE000EFE0)
T412C 000:111.997   [0][0]: E000E000 CID B105E00D PID 000BB00C SCS-M7
T412C 000:112.007   CPU_ReadMem(32 bytes @ 0xE0001FE0)
T412C 000:112.673   [0][1]: E0001000 CID B105E00D PID 003BB002 DWT
T412C 000:112.682   CPU_ReadMem(32 bytes @ 0xE0002FE0)
T412C 000:113.321   [0][2]: E0002000 CID B105E00D PID 002BB003 FPB
T412C 000:113.329   CPU_ReadMem(32 bytes @ 0xE0000FE0)
T412C 000:114.003   [0][3]: E0000000 CID B105E00D PID 003BB001 ITM
T412C 000:114.012   CPU_ReadMem(32 bytes @ 0xE0040FE0)
T412C 000:114.590   [0][4]: E0040000 CID B105900D PID 000BB9A1 TPIU
T412C 000:114.599   CPU_ReadMem(32 bytes @ 0xE0041FE0)
T412C 000:115.149   [0][5]: E0041000 CID B105900D PID 000BB925 ETM
T412C 000:115.172   pIdData->ScanLen=9
T412C 000:115.180   
T412C 000:115.184   pIdData->NumDevices=2
T412C 000:115.191   
T412C 000:115.197   pIdData->aId[0]=0x4BA00477
T412C 000:115.204   
T412C 000:115.208   pIdData->aIrRead[0]=0
T412C 000:115.215   
T412C 000:115.220   pIdData->aScanLen[0]=0
T412C 000:115.227   
T412C 000:115.232   pIdData->aScanRead[0]=0
T412C 000:115.239   
T412C 000:115.244 - 26.383ms
T412C 000:115.275 JLINK_JTAG_GetDeviceID(DeviceIndex = 0)
T412C 000:115.282 - 0.010ms returns 1268778103
T412C 000:115.288 JLINK_JTAG_GetDeviceInfo(DeviceIndex = 0)
T412C 000:115.293 - 0.007ms returns 0
T412C 000:115.299 JLINK_JTAG_GetDeviceID(DeviceIndex = 1)
T412C 000:115.304 - 0.007ms returns 104960065
T412C 000:115.309 JLINK_JTAG_GetDeviceInfo(DeviceIndex = 1)
T412C 000:115.314 - 0.007ms returns 0
T412C 000:115.321 JLINK_GetDLLVersion()
T412C 000:115.326 - 0.007ms returns 76201
T412C 000:115.331 JLINK_CORE_GetFound()
T412C 000:115.336 - 0.007ms returns 0xE0000FF
T412C 000:115.342 JLINK_GetDebugInfo(0x100 = JLINKARM_ROM_TABLE_ADDR_INDEX)
T412C 000:115.348   Value=0xE00FF000
T412C 000:115.355 - 0.015ms returns 0
T412C 000:115.364 JLINK_GetDebugInfo(0x100 = JLINKARM_ROM_TABLE_ADDR_INDEX)
T412C 000:115.369   Value=0xE00FF000
T412C 000:115.376 - 0.014ms returns 0
T412C 000:115.382 JLINK_GetDebugInfo(0x101 = JLINKARM_DEBUG_INFO_ETM_ADDR_INDEX)
T412C 000:115.387   Value=0xE0041000
T412C 000:115.394 - 0.014ms returns 0
T412C 000:115.401 JLINK_ReadMemEx(0xE0041FD0, 0x20 Bytes, Flags = 0x02000004)
T412C 000:115.414   CPU_ReadMem(32 bytes @ 0xE0041FD0)
T412C 000:116.002   Data:  04 00 00 00 00 00 00 00 00 00 00 00 00 00 00 00 ...
T412C 000:116.011 - 0.612ms returns 32 (0x20)
T412C 000:116.017 JLINK_GetDebugInfo(0x102 = JLINKARM_DEBUG_INFO_MTB_ADDR_INDEX)
T412C 000:116.022   Value=0x00000000
T412C 000:116.029 - 0.014ms returns 0
T412C 000:116.035 JLINK_GetDebugInfo(0x103 = JLINKARM_DEBUG_INFO_TPIU_ADDR_INDEX)
T412C 000:116.040   Value=0xE0040000
T412C 000:116.047 - 0.014ms returns 0
T412C 000:116.053 JLINK_GetDebugInfo(0x104 = JLINKARM_DEBUG_INFO_ITM_ADDR_INDEX)
T412C 000:116.059   Value=0xE0000000
T412C 000:116.066 - 0.015ms returns 0
T412C 000:116.071 JLINK_GetDebugInfo(0x105 = JLINKARM_DEBUG_INFO_DWT_ADDR_INDEX)
T412C 000:116.076   Value=0xE0001000
T412C 000:116.084 - 0.014ms returns 0
T412C 000:116.089 JLINK_GetDebugInfo(0x106 = JLINKARM_DEBUG_INFO_FPB_ADDR_INDEX)
T412C 000:116.094   Value=0xE0002000
T412C 000:116.101 - 0.014ms returns 0
T412C 000:116.107 JLINK_GetDebugInfo(0x107 = JLINKARM_DEBUG_INFO_NVIC_ADDR_INDEX)
T412C 000:116.114   Value=0xE000E000
T412C 000:116.121 - 0.017ms returns 0
T412C 000:116.127 JLINK_GetDebugInfo(0x10C = JLINKARM_DEBUG_INFO_DBG_ADDR_INDEX)
T412C 000:116.132   Value=0xE000EDF0
T412C 000:116.202 - 0.078ms returns 0
T412C 000:116.446 JLINK_GetDebugInfo(0x01 = Unknown)
T412C 000:116.451   Value=0x00000001
T412C 000:116.458 - 0.015ms returns 0
T412C 000:116.464 JLINK_ReadMemU32(0xE000ED00, 0x1 Items)
T412C 000:116.472   CPU_ReadMem(4 bytes @ 0xE000ED00)
T412C 000:117.088   Data:  41 C2 0F 41
T412C 000:117.144   Debug reg: CPUID
T412C 000:117.152 - 0.690ms returns 1 (0x1)
T412C 000:117.165 JLINK_GetDebugInfo(0x10F = JLINKARM_DEBUG_INFO_HAS_CORTEX_M_SECURITY_EXT_INDEX)
T412C 000:117.192   Value=0x00000000
T412C 000:117.213 - 0.054ms returns 0
T412C 000:117.227 JLINK_HasError()
T412C 000:117.245 JLINK_SetResetType(JLINKARM_CM3_RESET_TYPE_NORMAL)
T412C 000:117.253 - 0.011ms returns JLINKARM_CM3_RESET_TYPE_NORMAL
T412C 000:117.261 JLINK_Reset()
T412C 000:117.289   CPU is running
T412C 000:117.424   CPU_WriteMem(4 bytes @ 0xE000EDF0)
T412C 000:117.824   CPU is running
T412C 000:117.840   CPU_WriteMem(4 bytes @ 0xE000EDFC)
T412C 000:118.310   Reset: Halt core after reset via DEMCR.VC_CORERESET.
T412C 000:118.335   Reset: Reset device via AIRCR.SYSRESETREQ.
T412C 000:118.344   CPU is running
T412C 000:118.353   CPU_WriteMem(4 bytes @ 0xE000ED0C)
T412C 000:170.653   CPU_ReadMem(4 bytes @ 0xE000EDF0)
T412C 000:171.160   CPU_ReadMem(4 bytes @ 0xE000EDF0)
T412C 000:171.704   CPU is running
T412C 000:171.737   CPU_WriteMem(4 bytes @ 0xE000EDF0)
T412C 000:172.166   CPU is running
T412C 000:172.189   CPU_WriteMem(4 bytes @ 0xE000EDFC)
T412C 000:178.270   CPU_ReadMem(4 bytes @ 0xE000EDF0)
T412C 000:181.858   CPU_WriteMem(4 bytes @ 0xE000EDFC)
T412C 000:182.306   CPU_WriteMem(4 bytes @ 0xE0001028)
T412C 000:182.723   CPU_WriteMem(4 bytes @ 0xE0001038)
T412C 000:183.222   CPU_WriteMem(4 bytes @ 0xE0001048)
T412C 000:183.662   CPU_WriteMem(4 bytes @ 0xE0001058)
T412C 000:184.052   CPU_WriteMem(4 bytes @ 0xE0002000)
T412C 000:184.460   CPU_ReadMem(4 bytes @ 0xE000EDFC)
T412C 000:184.968   CPU_ReadMem(4 bytes @ 0xE0001000)
T412C 000:185.436 - 68.565ms
T412C 000:185.839 JLINK_HasError()
T412C 000:185.850 JLINK_ReadReg(R15 (PC))
T412C 000:185.863 - 0.016ms returns 0x08000B2C
T412C 000:185.870 JLINK_ReadReg(XPSR)
T412C 000:185.878 - 0.010ms returns 0x01000000
T412C 000:185.886 JLINK_Halt()
T412C 000:185.893 - 0.010ms returns 0x00
T412C 000:185.900 JLINK_ReadMemU32(0xE000EDF0, 0x1 Items)
T412C 000:185.913   CPU_ReadMem(4 bytes @ 0xE000EDF0)
T412C 000:186.358   Data:  03 00 03 00
T412C 000:186.375   Debug reg: DHCSR
T412C 000:186.382 - 0.484ms returns 1 (0x1)
T412C 000:186.422 JLINK_WriteU32_64(0xE000EDF0, 0xA05F0003)
T412C 000:186.431   Debug reg: DHCSR
T412C 000:186.655   CPU_WriteMem(4 bytes @ 0xE000EDF0)
T412C 000:187.032 - 0.629ms returns 0 (0x00000000)
T412C 000:187.059 JLINK_WriteU32_64(0xE000EDFC, 0x01000000)
T412C 000:187.067   Debug reg: DEMCR
T412C 000:187.084   CPU_WriteMem(4 bytes @ 0xE000EDFC)
T412C 000:187.553 - 0.505ms returns 0 (0x00000000)
T412C 000:187.601 JLINK_GetHWStatus(...)
T412C 000:187.805 - 0.215ms returns 0
T412C 000:187.840 JLINK_GetNumBPUnits(Type = 0xFFFFFF00)
T412C 000:187.847 - 0.009ms returns 0x06
T412C 000:187.853 JLINK_GetNumBPUnits(Type = 0xF0)
T412C 000:187.858 - 0.007ms returns 0x2000
T412C 000:187.863 JLINK_GetNumWPUnits()
T412C 000:187.868 - 0.007ms returns 4
T412C 000:187.882 JLINK_GetSpeed()
T412C 000:187.887 - 0.008ms returns 4000
T412C 000:187.897 JLINK_ReadMemU32(0xE000E004, 0x1 Items)
T412C 000:187.907   CPU_ReadMem(4 bytes @ 0xE000E004)
T412C 000:188.354   Data:  02 00 00 00
T412C 000:188.371 - 0.477ms returns 1 (0x1)
T412C 000:188.379 JLINK_ReadMemU32(0xE000E004, 0x1 Items)
T412C 000:188.389   CPU_ReadMem(4 bytes @ 0xE000E004)
T412C 000:188.903   Data:  02 00 00 00
T412C 000:188.921 - 0.544ms returns 1 (0x1)
T412C 000:188.930 JLINK_WriteMemEx(0xE0001000, 0x0000001C Bytes, Flags = 0x02000004)
T412C 000:188.939   Data:  01 00 00 00 00 00 00 00 00 00 00 00 00 00 00 00 ...
T412C 000:188.954   CPU_WriteMem(28 bytes @ 0xE0001000)
T412C 000:189.561 - 0.642ms returns 0x1C
T412C 000:189.579 JLINK_HasError()
T412C 000:189.586 JLINK_ReadReg(R15 (PC))
T412C 000:189.593 - 0.010ms returns 0x08000B2C
T412C 000:189.599 JLINK_ReadReg(XPSR)
T412C 000:189.605 - 0.007ms returns 0x01000000
T412C 000:190.973 JLINK_ReadMemEx(0xE0001004, 0x4 Bytes, Flags = 0x02000000)
T412C 000:190.989   Data:  00 00 00 00
T412C 000:190.996   Debug reg: DWT_CYCCNT
T412C 000:191.004 - 0.033ms returns 4 (0x4)
T412C 000:213.938 JLINK_WriteMemEx(0x20000000, 0x00001000 Bytes, Flags = 0x02000000)
T412C 000:213.961   Data:  20 64 01 20 2D 0F 00 20 C5 01 00 20 C7 01 00 20 ...
T412C 000:214.151   CPU_WriteMem(4096 bytes @ 0x20000000)
T412C 000:231.466 - 17.577ms returns 0x1000
T412C 000:232.521 JLINK_WriteMemEx(0x20001000, 0x00001000 Bytes, Flags = 0x02000000)
T412C 000:232.538   Data:  E0 4C 23 60 00 23 24 1D 23 60 DD 4B 24 1D 23 60 ...
T412C 000:232.563   CPU_WriteMem(4096 bytes @ 0x20001000)
T412C 000:249.921 - 17.440ms returns 0x1000
T412C 000:250.274 JLINK_WriteMemEx(0x20002000, 0x00000278 Bytes, Flags = 0x02000000)
T412C 000:250.287   Data:  00 DA 01 27 00 21 11 2F 01 DD 11 20 00 E0 38 46 ...
T412C 000:250.310   CPU_WriteMem(632 bytes @ 0x20002000)
T412C 000:253.720 - 3.492ms returns 0x278
T412C 000:307.044 JLINK_HasError()
T412C 000:307.090 JLINK_SetResetType(JLINKARM_CM3_RESET_TYPE_NORMAL)
T412C 000:307.097 - 0.010ms returns JLINKARM_CM3_RESET_TYPE_NORMAL
T412C 000:307.105 JLINK_Reset()
T412C 000:307.123   CPU_WriteMem(4 bytes @ 0xE000EDF0)
T412C 000:307.597   CPU_WriteMem(4 bytes @ 0xE000EDFC)
T412C 000:308.072   Reset: Halt core after reset via DEMCR.VC_CORERESET.
T412C 000:308.096   Reset: Reset device via AIRCR.SYSRESETREQ.
T412C 000:308.107   CPU_WriteMem(4 bytes @ 0xE000ED0C)
T412C 000:360.569   CPU_ReadMem(4 bytes @ 0xE000EDF0)
T412C 000:361.096   CPU_ReadMem(4 bytes @ 0xE000EDF0)
T412C 000:361.510   CPU_WriteMem(4 bytes @ 0xE000EDF0)
T412C 000:362.013   CPU_WriteMem(4 bytes @ 0xE000EDFC)
T412C 000:367.799   CPU_ReadMem(4 bytes @ 0xE000EDF0)
T412C 000:371.194   CPU_WriteMem(4 bytes @ 0xE000EDFC)
T412C 000:371.668   CPU_WriteMem(4 bytes @ 0xE0001028)
T412C 000:372.079   CPU_WriteMem(4 bytes @ 0xE0001038)
T412C 000:372.514   CPU_WriteMem(4 bytes @ 0xE0001048)
T412C 000:372.986   CPU_WriteMem(4 bytes @ 0xE0001058)
T412C 000:373.422   CPU_WriteMem(4 bytes @ 0xE0002000)
T412C 000:373.851   CPU_ReadMem(4 bytes @ 0xE000EDFC)
T412C 000:374.319   CPU_ReadMem(4 bytes @ 0xE0001000)
T412C 000:374.782 - 67.693ms
T412C 000:374.854 JLINK_HasError()
T412C 000:374.867 JLINK_ReadReg(R15 (PC))
T412C 000:374.879 - 0.015ms returns 0x08000B2C
T412C 000:374.888 JLINK_ReadReg(XPSR)
T412C 000:374.896 - 0.011ms returns 0x01000000
T412C 000:374.969 JLINK_ReadMemEx(0x08000B2C, 0x3C Bytes, Flags = 0x02000000)
T412C 000:374.990   CPU_ReadMem(128 bytes @ 0x08000B00)
T412C 000:376.176    -- Updating C cache (128 bytes @ 0x08000B00)
T412C 000:376.240    -- Read from C cache (60 bytes @ 0x08000B2C)
T412C 000:376.257   Data:  06 48 80 47 06 48 00 47 FE E7 FE E7 FE E7 FE E7 ...
T412C 000:376.271 - 1.306ms returns 60 (0x3C)
T412C 000:376.284 JLINK_ReadMemEx(0x08000B2C, 0x2 Bytes, Flags = 0x02000000)
T412C 000:376.296    -- Read from C cache (2 bytes @ 0x08000B2C)
T412C 000:376.311   Data:  06 48
T412C 000:376.324 - 0.045ms returns 2 (0x2)
T412C 000:376.405 JLINK_ReadMemEx(0x08000B2E, 0x2 Bytes, Flags = 0x02000000)
T412C 000:376.417    -- Read from C cache (2 bytes @ 0x08000B2E)
T412C 000:376.431   Data:  80 47
T412C 000:376.444 - 0.045ms returns 2 (0x2)
T412C 000:376.746 JLINK_ReadMemEx(0x08000B2E, 0x2 Bytes, Flags = 0x02000000)
T412C 000:376.765    -- Read from C cache (2 bytes @ 0x08000B2E)
T412C 000:376.777   Data:  80 47
T412C 000:376.788 - 0.045ms returns 2 (0x2)
T412C 000:376.797 JLINK_ReadMemEx(0x08000B30, 0x3C Bytes, Flags = 0x02000000)
T412C 000:376.878    -- Read from C cache (60 bytes @ 0x08000B30)
T412C 000:376.893   Data:  06 48 00 47 FE E7 FE E7 FE E7 FE E7 FE E7 FE E7 ...
T412C 000:376.903 - 0.110ms returns 60 (0x3C)
T412C 000:376.912 JLINK_ReadMemEx(0x08000B30, 0x2 Bytes, Flags = 0x02000000)
T412C 000:376.919    -- Read from C cache (2 bytes @ 0x08000B30)
T412C 000:376.930   Data:  06 48
T412C 000:376.941 - 0.032ms returns 2 (0x2)
T412C 000:376.953 JLINK_ReadMemEx(0x08000B30, 0x3C Bytes, Flags = 0x02000000)
T412C 000:376.962    -- Read from C cache (60 bytes @ 0x08000B30)
T412C 000:376.973   Data:  06 48 00 47 FE E7 FE E7 FE E7 FE E7 FE E7 FE E7 ...
T412C 000:376.983 - 0.033ms returns 60 (0x3C)
T412C 000:376.992 JLINK_ReadMemEx(0x08000B30, 0x2 Bytes, Flags = 0x02000000)
T412C 000:376.999    -- Read from C cache (2 bytes @ 0x08000B30)
T412C 000:377.010   Data:  06 48
T412C 000:377.021 - 0.033ms returns 2 (0x2)
T412C 000:377.029 JLINK_ReadMemEx(0x08000B32, 0x2 Bytes, Flags = 0x02000000)
T412C 000:377.037    -- Read from C cache (2 bytes @ 0x08000B32)
T412C 000:377.048   Data:  00 47
T412C 000:377.058 - 0.032ms returns 2 (0x2)
T412C 000:377.070 JLINK_ReadMemEx(0x08000B32, 0x2 Bytes, Flags = 0x02000000)
T412C 000:377.078    -- Read from C cache (2 bytes @ 0x08000B32)
T412C 000:377.088   Data:  00 47
T412C 000:377.099 - 0.032ms returns 2 (0x2)
T412C 000:377.107 JLINK_ReadMemEx(0x08000B34, 0x3C Bytes, Flags = 0x02000000)
T412C 000:377.115    -- Read from C cache (60 bytes @ 0x08000B34)
T412C 000:377.126   Data:  FE E7 FE E7 FE E7 FE E7 FE E7 FE E7 FE E7 FE E7 ...
T412C 000:377.135 - 0.030ms returns 60 (0x3C)
T412C 000:377.142 JLINK_ReadMemEx(0x08000B34, 0x2 Bytes, Flags = 0x02000000)
T412C 000:377.148    -- Read from C cache (2 bytes @ 0x08000B34)
T412C 000:377.157   Data:  FE E7
T412C 000:377.166 - 0.027ms returns 2 (0x2)
T412C 000:377.175 JLINK_ReadMemEx(0x08000B34, 0x3C Bytes, Flags = 0x02000000)
T412C 000:377.182    -- Read from C cache (60 bytes @ 0x08000B34)
T412C 000:377.191   Data:  FE E7 FE E7 FE E7 FE E7 FE E7 FE E7 FE E7 FE E7 ...
T412C 000:377.200 - 0.028ms returns 60 (0x3C)
T412C 000:377.207 JLINK_ReadMemEx(0x08000B34, 0x2 Bytes, Flags = 0x02000000)
T412C 000:377.213    -- Read from C cache (2 bytes @ 0x08000B34)
T412C 000:377.222   Data:  FE E7
T412C 000:377.232 - 0.027ms returns 2 (0x2)
T412C 000:377.238 JLINK_ReadMemEx(0x08000B36, 0x2 Bytes, Flags = 0x02000000)
T412C 000:377.245    -- Read from C cache (2 bytes @ 0x08000B36)
T412C 000:377.254   Data:  FE E7
T412C 000:377.263 - 0.027ms returns 2 (0x2)
T412C 000:413.033 JLINK_ReadMemEx(0x40012200, 0x4C Bytes, Flags = 0x02000004)
T412C 000:413.086   CPU_ReadMem(76 bytes @ 0x40012200)
T412C 000:414.268   Data:  00 00 00 00 00 00 00 00 00 00 00 00 00 00 00 00 ...
T412C 000:414.316 - 1.286ms returns 76 (0x4C)
T412C 000:414.333 JLINK_ReadMemEx(0x4001224C, 0x4 Bytes, Flags = 0x02000004)
T412C 000:414.349   CPU_ReadMem(4 bytes @ 0x4001224C)
T412C 000:414.936   Data:  00 00 00 00
T412C 000:414.962 - 0.632ms returns 4 (0x4)
T412C 000:434.451 JLINK_ReadMemEx(0x40020000, 0x14 Bytes, Flags = 0x02000004)
T412C 000:434.492   CPU_ReadMem(20 bytes @ 0x40020000)
T412C 000:435.044   Data:  00 00 00 A8 00 00 00 A8 00 00 00 A8 00 00 00 A8 ...
T412C 000:435.056 - 0.608ms returns 20 (0x14)
T412C 000:435.066 JLINK_ReadMemEx(0x40020014, 0x4 Bytes, Flags = 0x02000004)
T412C 000:435.074   CPU_ReadMem(4 bytes @ 0x40020014)
T412C 000:435.469   Data:  00 00 00 A8
T412C 000:435.479 - 0.415ms returns 4 (0x4)
T412C 000:435.486 JLINK_ReadMemEx(0x4002001C, 0x8 Bytes, Flags = 0x02000004)
T412C 000:435.493   CPU_ReadMem(8 bytes @ 0x4002001C)
T412C 000:435.961   Data:  00 00 00 A8 00 00 00 A8
T412C 000:435.970 - 0.487ms returns 8 (0x8)
T412C 000:435.977 JLINK_ReadMemEx(0x40020024, 0x4 Bytes, Flags = 0x02000004)
T412C 000:435.984   CPU_ReadMem(4 bytes @ 0x40020024)
T412C 000:436.418   Data:  00 00 00 A8
T412C 000:436.427 - 0.452ms returns 4 (0x4)
T412C 000:453.273 JLINK_ReadMemEx(0x40020400, 0x14 Bytes, Flags = 0x02000004)
T412C 000:453.314   CPU_ReadMem(20 bytes @ 0x40020400)
T412C 000:453.879   Data:  80 02 00 00 80 02 00 00 80 02 00 00 80 02 00 00 ...
T412C 000:453.932 - 0.662ms returns 20 (0x14)
T412C 000:453.948 JLINK_ReadMemEx(0x40020414, 0x4 Bytes, Flags = 0x02000004)
T412C 000:453.967   CPU_ReadMem(4 bytes @ 0x40020414)
T412C 000:454.389   Data:  80 02 00 00
T412C 000:454.399 - 0.453ms returns 4 (0x4)
T412C 000:454.406 JLINK_ReadMemEx(0x4002041C, 0x8 Bytes, Flags = 0x02000004)
T412C 000:454.413   CPU_ReadMem(8 bytes @ 0x4002041C)
T412C 000:454.832   Data:  80 02 00 00 80 02 00 00
T412C 000:454.856 - 0.452ms returns 8 (0x8)
T412C 000:454.863 JLINK_ReadMemEx(0x40020424, 0x4 Bytes, Flags = 0x02000004)
T412C 000:454.870   CPU_ReadMem(4 bytes @ 0x40020424)
T412C 000:455.317   Data:  80 02 00 00
T412C 000:455.326 - 0.465ms returns 4 (0x4)
T412C 000:471.487 JLINK_ReadMemEx(0x40021400, 0x14 Bytes, Flags = 0x02000004)
T412C 000:471.525   CPU_ReadMem(20 bytes @ 0x40021400)
T412C 000:472.022   Data:  00 00 00 00 00 00 00 00 00 00 00 00 00 00 00 00 ...
T412C 000:472.031 - 0.546ms returns 20 (0x14)
T412C 000:472.040 JLINK_ReadMemEx(0x40021414, 0x4 Bytes, Flags = 0x02000004)
T412C 000:472.048   CPU_ReadMem(4 bytes @ 0x40021414)
T412C 000:472.402   Data:  00 00 00 00
T412C 000:472.411 - 0.373ms returns 4 (0x4)
T412C 000:472.418 JLINK_ReadMemEx(0x4002141C, 0x8 Bytes, Flags = 0x02000004)
T412C 000:472.425   CPU_ReadMem(8 bytes @ 0x4002141C)
T412C 000:472.842   Data:  00 00 00 00 00 00 00 00
T412C 000:472.851 - 0.435ms returns 8 (0x8)
T412C 000:472.857 JLINK_ReadMemEx(0x40021424, 0x4 Bytes, Flags = 0x02000004)
T412C 000:472.864   CPU_ReadMem(4 bytes @ 0x40021424)
T412C 000:473.218   Data:  00 00 00 00
T412C 000:473.227 - 0.372ms returns 4 (0x4)
T412C 000:490.682 JLINK_ReadMemEx(0x40023800, 0x18 Bytes, Flags = 0x02000004)
T412C 000:490.718   CPU_ReadMem(24 bytes @ 0x40023800)
T412C 000:491.284   Data:  83 7B 00 00 10 30 00 24 00 00 00 00 00 00 00 00 ...
T412C 000:491.319 - 0.640ms returns 24 (0x18)
T412C 000:491.334 JLINK_ReadMemEx(0x40023818, 0x4 Bytes, Flags = 0x02000004)
T412C 000:491.353   CPU_ReadMem(4 bytes @ 0x40023818)
T412C 000:491.727   Data:  00 00 00 00
T412C 000:491.736 - 0.405ms returns 4 (0x4)
T412C 000:491.743 JLINK_ReadMemEx(0x40023820, 0x4 Bytes, Flags = 0x02000004)
T412C 000:491.750   CPU_ReadMem(4 bytes @ 0x40023820)
T412C 000:492.186   Data:  00 00 00 00
T412C 000:492.194 - 0.481ms returns 4 (0x4)
T412C 000:492.250 JLINK_ReadMemEx(0x40023824, 0x4 Bytes, Flags = 0x02000004)
T412C 000:492.257   CPU_ReadMem(4 bytes @ 0x40023824)
T412C 000:492.613   Data:  00 00 00 00
T412C 000:492.622 - 0.374ms returns 4 (0x4)
T412C 000:492.628 JLINK_ReadMemEx(0x40023830, 0x8 Bytes, Flags = 0x02000004)
T412C 000:492.635   CPU_ReadMem(8 bytes @ 0x40023830)
T412C 000:493.013   Data:  00 00 10 00 00 00 00 00
T412C 000:493.024 - 0.398ms returns 8 (0x8)
T412C 000:493.031 JLINK_ReadMemEx(0x40023838, 0x4 Bytes, Flags = 0x02000004)
T412C 000:493.039   CPU_ReadMem(4 bytes @ 0x40023838)
T412C 000:493.375   Data:  00 00 00 00
T412C 000:493.387 - 0.358ms returns 4 (0x4)
T412C 000:493.394 JLINK_ReadMemEx(0x40023840, 0x4 Bytes, Flags = 0x02000004)
T412C 000:493.402   CPU_ReadMem(4 bytes @ 0x40023840)
T412C 000:493.740   Data:  00 00 00 00
T412C 000:493.754 - 0.362ms returns 4 (0x4)
T412C 000:493.761 JLINK_ReadMemEx(0x40023844, 0x4 Bytes, Flags = 0x02000004)
T412C 000:493.769   CPU_ReadMem(4 bytes @ 0x40023844)
T412C 000:494.114   Data:  00 00 00 00
T412C 000:494.133 - 0.374ms returns 4 (0x4)
T412C 000:494.142 JLINK_ReadMemEx(0x40023850, 0x8 Bytes, Flags = 0x02000004)
T412C 000:494.152   CPU_ReadMem(8 bytes @ 0x40023850)
T412C 000:494.513   Data:  FF 97 EF 7E F1 00 00 00
T412C 000:494.524 - 0.385ms returns 8 (0x8)
T412C 000:494.532 JLINK_ReadMemEx(0x40023858, 0x4 Bytes, Flags = 0x02000004)
T412C 000:494.541   CPU_ReadMem(4 bytes @ 0x40023858)
T412C 000:494.953   Data:  01 00 00 00
T412C 000:494.968 - 0.438ms returns 4 (0x4)
T412C 000:494.976 JLINK_ReadMemEx(0x40023860, 0x4 Bytes, Flags = 0x02000004)
T412C 000:495.000   CPU_ReadMem(4 bytes @ 0x40023860)
T412C 000:495.372   Data:  FF C9 FE F6
T412C 000:495.382 - 0.408ms returns 4 (0x4)
T412C 000:495.390 JLINK_ReadMemEx(0x40023864, 0x4 Bytes, Flags = 0x02000004)
T412C 000:495.397   CPU_ReadMem(4 bytes @ 0x40023864)
T412C 000:495.751   Data:  33 7F 77 04
T412C 000:495.761 - 0.374ms returns 4 (0x4)
T412C 000:495.769 JLINK_ReadMemEx(0x40023870, 0x4 Bytes, Flags = 0x02000004)
T412C 000:495.776   CPU_ReadMem(4 bytes @ 0x40023870)
T412C 000:496.131   Data:  00 00 00 00
T412C 000:496.142 - 0.375ms returns 4 (0x4)
T412C 000:496.150 JLINK_ReadMemEx(0x40023874, 0x4 Bytes, Flags = 0x02000004)
T412C 000:496.157   CPU_ReadMem(4 bytes @ 0x40023874)
T412C 000:496.506   Data:  00 00 00 1E
T412C 000:496.558 - 0.411ms returns 4 (0x4)
T412C 000:496.565 JLINK_ReadMemEx(0x40023880, 0x4 Bytes, Flags = 0x02000004)
T412C 000:496.571   CPU_ReadMem(4 bytes @ 0x40023880)
T412C 000:496.905   Data:  00 00 00 00
T412C 000:496.913 - 0.350ms returns 4 (0x4)
T412C 000:496.919 JLINK_ReadMemEx(0x40023884, 0x4 Bytes, Flags = 0x02000004)
T412C 000:496.926   CPU_ReadMem(4 bytes @ 0x40023884)
T412C 000:497.273   Data:  00 30 00 24
T412C 000:497.282 - 0.365ms returns 4 (0x4)
T412C 000:515.472 JLINK_ReadMemEx(0x40004800, 0x18 Bytes, Flags = 0x02000004)
T412C 000:515.531   CPU_ReadMem(24 bytes @ 0x40004800)
T412C 000:516.108   Data:  00 00 00 00 00 00 00 00 00 00 00 00 00 00 00 00 ...
T412C 000:516.157 - 0.688ms returns 24 (0x18)
T412C 000:516.171 JLINK_ReadMemEx(0x40004818, 0x4 Bytes, Flags = 0x02000004)
T412C 000:516.194   CPU_ReadMem(4 bytes @ 0x40004818)
T412C 000:516.578   Data:  00 00 00 00
T412C 000:516.594 - 0.425ms returns 4 (0x4)
T412C 000:880.020 JLINK_HasError()
T412C 000:880.064 JLINK_ReadReg(R0)
T412C 000:880.566 - 0.513ms returns 0x00000000
T412C 000:880.583 JLINK_ReadReg(R1)
T412C 000:880.589 - 0.008ms returns 0x00000000
T412C 000:880.595 JLINK_ReadReg(R2)
T412C 000:880.600 - 0.007ms returns 0x00000000
T412C 000:880.606 JLINK_ReadReg(R3)
T412C 000:880.611 - 0.007ms returns 0x00000000
T412C 000:880.617 JLINK_ReadReg(R4)
T412C 000:880.622 - 0.007ms returns 0x00000000
T412C 000:880.627 JLINK_ReadReg(R5)
T412C 000:880.633 - 0.007ms returns 0x00000000
T412C 000:880.638 JLINK_ReadReg(R6)
T412C 000:880.643 - 0.007ms returns 0x00000000
T412C 000:880.649 JLINK_ReadReg(R7)
T412C 000:880.654 - 0.007ms returns 0x00000000
T412C 000:880.660 JLINK_ReadReg(R8)
T412C 000:880.668 - 0.010ms returns 0x00000000
T412C 000:880.674 JLINK_ReadReg(R9)
T412C 000:880.679 - 0.007ms returns 0x00000000
T412C 000:880.684 JLINK_ReadReg(R10)
T412C 000:880.690 - 0.007ms returns 0x00000000
T412C 000:880.695 JLINK_ReadReg(R11)
T412C 000:880.700 - 0.007ms returns 0x00000000
T412C 000:880.706 JLINK_ReadReg(R12)
T412C 000:880.711 - 0.007ms returns 0x00000000
T412C 000:880.717 JLINK_ReadReg(R13 (SP))
T412C 000:880.722 - 0.008ms returns 0x20006408
T412C 000:880.728 JLINK_ReadReg(R14)
T412C 000:880.733 - 0.007ms returns 0xFFFFFFFF
T412C 000:880.739 JLINK_ReadReg(R15 (PC))
T412C 000:880.744 - 0.007ms returns 0x08000B2C
T412C 000:880.750 JLINK_ReadReg(XPSR)
T412C 000:880.755 - 0.007ms returns 0x01000000
T412C 000:880.760 JLINK_ReadReg(MSP)
T412C 000:880.765 - 0.007ms returns 0x20006408
T412C 000:880.771 JLINK_ReadReg(PSP)
T412C 000:880.776 - 0.007ms returns 0x00000000
T412C 000:880.782 JLINK_ReadReg(CFBP)
T412C 000:880.787 - 0.007ms returns 0x00000000
T412C 000:880.793 JLINK_ReadReg(FPSCR)
T412C 000:885.226 - 4.476ms returns 0x00000000
T412C 000:885.281 JLINK_ReadReg(FPS0)
T412C 000:885.292 - 0.014ms returns 0x00000000
T412C 000:885.299 JLINK_ReadReg(FPS1)
T412C 000:885.306 - 0.010ms returns 0x00000000
T412C 000:885.314 JLINK_ReadReg(FPS2)
T412C 000:885.320 - 0.010ms returns 0x00000000
T412C 000:885.328 JLINK_ReadReg(FPS3)
T412C 000:885.335 - 0.010ms returns 0x00000000
T412C 000:885.342 JLINK_ReadReg(FPS4)
T412C 000:885.349 - 0.009ms returns 0x00000000
T412C 000:885.431 JLINK_ReadReg(FPS5)
T412C 000:885.454 - 0.026ms returns 0x00000000
T412C 000:885.463 JLINK_ReadReg(FPS6)
T412C 000:885.470 - 0.014ms returns 0x00000000
T412C 000:885.483 JLINK_ReadReg(FPS7)
T412C 000:885.489 - 0.010ms returns 0x00000000
T412C 000:885.497 JLINK_ReadReg(FPS8)
T412C 000:885.504 - 0.009ms returns 0x00000000
T412C 000:885.612 JLINK_ReadReg(FPS9)
T412C 000:885.947 - 0.338ms returns 0x00000000
T412C 000:885.956 JLINK_ReadReg(FPS10)
T412C 000:885.969 - 0.016ms returns 0x00000000
T412C 000:885.976 JLINK_ReadReg(FPS11)
T412C 000:885.981 - 0.008ms returns 0x00000000
T412C 000:885.987 JLINK_ReadReg(FPS12)
T412C 000:885.993 - 0.008ms returns 0x00000000
T412C 000:885.999 JLINK_ReadReg(FPS13)
T412C 000:886.004 - 0.008ms returns 0x00000000
T412C 000:886.010 JLINK_ReadReg(FPS14)
T412C 000:886.016 - 0.008ms returns 0x00000000
T412C 000:886.022 JLINK_ReadReg(FPS15)
T412C 000:886.028 - 0.008ms returns 0x00000000
T412C 000:886.034 JLINK_ReadReg(FPS16)
T412C 000:886.039 - 0.008ms returns 0x00000000
T412C 000:886.045 JLINK_ReadReg(FPS17)
T412C 000:886.051 - 0.008ms returns 0x00000000
T412C 000:886.057 JLINK_ReadReg(FPS18)
T412C 000:886.062 - 0.008ms returns 0x00000000
T412C 000:886.068 JLINK_ReadReg(FPS19)
T412C 000:886.074 - 0.008ms returns 0x00000000
T412C 000:886.080 JLINK_ReadReg(FPS20)
T412C 000:886.085 - 0.008ms returns 0x00000000
T412C 000:886.091 JLINK_ReadReg(FPS21)
T412C 000:886.097 - 0.008ms returns 0x00000000
T412C 000:886.103 JLINK_ReadReg(FPS22)
T412C 000:886.109 - 0.008ms returns 0x00000000
T412C 000:886.115 JLINK_ReadReg(FPS23)
T412C 000:886.120 - 0.008ms returns 0x00000000
T412C 000:886.126 JLINK_ReadReg(FPS24)
T412C 000:886.132 - 0.008ms returns 0x00000000
T412C 000:886.138 JLINK_ReadReg(FPS25)
T412C 000:886.144 - 0.008ms returns 0x00000000
T412C 000:886.149 JLINK_ReadReg(FPS26)
T412C 000:886.155 - 0.008ms returns 0x00000000
T412C 000:886.161 JLINK_ReadReg(FPS27)
T412C 000:886.167 - 0.008ms returns 0x00000000
T412C 000:886.173 JLINK_ReadReg(FPS28)
T412C 000:886.178 - 0.008ms returns 0x00000000
T412C 000:886.184 JLINK_ReadReg(FPS29)
T412C 000:886.190 - 0.008ms returns 0x00000000
T412C 000:886.196 JLINK_ReadReg(FPS30)
T412C 000:886.201 - 0.008ms returns 0x00000000
T412C 000:886.207 JLINK_ReadReg(FPS31)
T412C 000:886.213 - 0.008ms returns 0x00000000
T412C 000:886.272 JLINK_ReadMemEx(0x40004800, 0x3C Bytes, Flags = 0x02000000)
T412C 000:886.285   CPU_ReadMem(60 bytes @ 0x40004800)
T412C 000:887.093   Data:  00 00 00 00 00 00 00 00 00 00 00 00 00 00 00 00 ...
T412C 000:887.128 - 0.859ms returns 60 (0x3C)
T412C 000:889.224 JLINK_ReadMemEx(0x40004800, 0x3C Bytes, Flags = 0x02000000)
T412C 000:889.247   CPU_ReadMem(60 bytes @ 0x40004800)
T412C 000:890.044   Data:  00 00 00 00 00 00 00 00 00 00 00 00 00 00 00 00 ...
T412C 000:890.061 - 0.840ms returns 60 (0x3C)
T412C 000:890.224 JLINK_ReadMemEx(0x40004800, 0x3C Bytes, Flags = 0x02000000)
T412C 000:890.238   CPU_ReadMem(60 bytes @ 0x40004800)
T412C 000:891.172   Data:  00 00 00 00 00 00 00 00 00 00 00 00 00 00 00 00 ...
T412C 000:891.188 - 0.966ms returns 60 (0x3C)
T412C 000:895.180 JLINK_ReadMemEx(0x4001224C, 0x3C Bytes, Flags = 0x02000000)
T412C 000:895.208   CPU_ReadMem(60 bytes @ 0x4001224C)
T412C 000:896.082   Data:  00 00 00 00 00 00 00 00 00 00 00 00 00 00 00 00 ...
T412C 000:896.108 - 0.930ms returns 60 (0x3C)
T412C 000:897.943 JLINK_ReadMemEx(0x4001224C, 0x3C Bytes, Flags = 0x02000000)
T412C 000:897.967   CPU_ReadMem(60 bytes @ 0x4001224C)
T412C 000:898.923   Data:  00 00 00 00 00 00 00 00 00 00 00 00 00 00 00 00 ...
T412C 000:898.977 - 1.036ms returns 60 (0x3C)
T412C 000:899.173 JLINK_ReadMemEx(0x4001224C, 0x3C Bytes, Flags = 0x02000000)
T412C 000:899.189   CPU_ReadMem(60 bytes @ 0x4001224C)
T412C 000:900.131   Data:  00 00 00 00 00 00 00 00 00 00 00 00 00 00 00 00 ...
T412C 000:900.152 - 0.982ms returns 60 (0x3C)
T412C 000:991.692 JLINK_ReadMemEx(0x08000B2C, 0x3C Bytes, Flags = 0x02000000)
T412C 000:991.748    -- Read from C cache (60 bytes @ 0x08000B2C)
T412C 000:991.757   Data:  06 48 80 47 06 48 00 47 FE E7 FE E7 FE E7 FE E7 ...
T412C 000:991.765 - 0.075ms returns 60 (0x3C)
T412C 000:991.771 JLINK_ReadMemEx(0x08000B2C, 0x2 Bytes, Flags = 0x02000000)
T412C 000:991.824    -- Read from C cache (2 bytes @ 0x08000B2C)
T412C 000:991.832   Data:  06 48
T412C 000:991.840 - 0.071ms returns 2 (0x2)
T412C 000:991.847 JLINK_ReadMemEx(0x08000B2E, 0x2 Bytes, Flags = 0x02000000)
T412C 000:991.853    -- Read from C cache (2 bytes @ 0x08000B2E)
T412C 000:991.860   Data:  80 47
T412C 000:991.868 - 0.023ms returns 2 (0x2)
T412C 000:991.890 JLINK_ReadMemEx(0x08000B2E, 0x2 Bytes, Flags = 0x02000000)
T412C 000:991.896    -- Read from C cache (2 bytes @ 0x08000B2E)
T412C 000:991.903   Data:  80 47
T412C 000:991.911 - 0.022ms returns 2 (0x2)
T412C 000:991.916 JLINK_ReadMemEx(0x08000B30, 0x3C Bytes, Flags = 0x02000000)
T412C 000:991.922    -- Read from C cache (60 bytes @ 0x08000B30)
T412C 000:991.930   Data:  06 48 00 47 FE E7 FE E7 FE E7 FE E7 FE E7 FE E7 ...
T412C 000:991.937 - 0.023ms returns 60 (0x3C)
T412C 000:991.943 JLINK_ReadMemEx(0x08000B30, 0x2 Bytes, Flags = 0x02000000)
T412C 000:991.949    -- Read from C cache (2 bytes @ 0x08000B30)
T412C 000:991.956   Data:  06 48
T412C 000:991.963 - 0.022ms returns 2 (0x2)
T412C 000:991.972 JLINK_ReadMemEx(0x08000B30, 0x3C Bytes, Flags = 0x02000000)
T412C 000:991.977    -- Read from C cache (60 bytes @ 0x08000B30)
T412C 000:991.985   Data:  06 48 00 47 FE E7 FE E7 FE E7 FE E7 FE E7 FE E7 ...
T412C 000:991.992 - 0.023ms returns 60 (0x3C)
T412C 000:991.998 JLINK_ReadMemEx(0x08000B30, 0x2 Bytes, Flags = 0x02000000)
T412C 000:992.003    -- Read from C cache (2 bytes @ 0x08000B30)
T412C 000:992.011   Data:  06 48
T412C 000:992.018 - 0.022ms returns 2 (0x2)
T412C 000:992.024 JLINK_ReadMemEx(0x08000B32, 0x2 Bytes, Flags = 0x02000000)
T412C 000:992.029    -- Read from C cache (2 bytes @ 0x08000B32)
T412C 000:992.036   Data:  00 47
T412C 000:992.044 - 0.022ms returns 2 (0x2)
T412C 000:992.051 JLINK_ReadMemEx(0x08000B32, 0x2 Bytes, Flags = 0x02000000)
T412C 000:992.057    -- Read from C cache (2 bytes @ 0x08000B32)
T412C 000:992.065   Data:  00 47
T412C 000:992.072 - 0.022ms returns 2 (0x2)
T412C 000:992.078 JLINK_ReadMemEx(0x08000B34, 0x3C Bytes, Flags = 0x02000000)
T412C 000:992.083    -- Read from C cache (60 bytes @ 0x08000B34)
T412C 000:992.091   Data:  FE E7 FE E7 FE E7 FE E7 FE E7 FE E7 FE E7 FE E7 ...
T412C 000:992.098 - 0.023ms returns 60 (0x3C)
T412C 000:992.104 JLINK_ReadMemEx(0x08000B34, 0x2 Bytes, Flags = 0x02000000)
T412C 000:992.109    -- Read from C cache (2 bytes @ 0x08000B34)
T412C 000:992.117   Data:  FE E7
T412C 000:992.124 - 0.022ms returns 2 (0x2)
T412C 000:992.131 JLINK_ReadMemEx(0x08000B34, 0x3C Bytes, Flags = 0x02000000)
T412C 000:992.137    -- Read from C cache (60 bytes @ 0x08000B34)
T412C 000:992.144   Data:  FE E7 FE E7 FE E7 FE E7 FE E7 FE E7 FE E7 FE E7 ...
T412C 000:992.151 - 0.022ms returns 60 (0x3C)
T412C 000:992.157 JLINK_ReadMemEx(0x08000B34, 0x2 Bytes, Flags = 0x02000000)
T412C 000:992.163    -- Read from C cache (2 bytes @ 0x08000B34)
T412C 000:992.170   Data:  FE E7
T412C 000:992.177 - 0.022ms returns 2 (0x2)
T412C 000:992.183 JLINK_ReadMemEx(0x08000B36, 0x2 Bytes, Flags = 0x02000000)
T412C 000:992.189    -- Read from C cache (2 bytes @ 0x08000B36)
T412C 000:992.196   Data:  FE E7
T412C 000:992.203 - 0.022ms returns 2 (0x2)
T412C 001:473.758 JLINK_WriteMemEx(0x20000000, 0x00001000 Bytes, Flags = 0x02000000)
T412C 001:473.794   Data:  20 64 01 20 2D 0F 00 20 C5 01 00 20 C7 01 00 20 ...
T412C 001:473.818   CPU_WriteMem(4096 bytes @ 0x20000000)
T412C 001:491.252 - 17.537ms returns 0x1000
T412C 001:491.645 JLINK_WriteMemEx(0x20001000, 0x00001000 Bytes, Flags = 0x02000000)
T412C 001:491.663   Data:  E0 4C 23 60 00 23 24 1D 23 60 DD 4B 24 1D 23 60 ...
T412C 001:491.690   CPU_WriteMem(4096 bytes @ 0x20001000)
T412C 001:509.080 - 17.470ms returns 0x1000
T412C 001:509.421 JLINK_WriteMemEx(0x20002000, 0x00000278 Bytes, Flags = 0x02000000)
T412C 001:509.435   Data:  00 DA 01 27 00 21 11 2F 01 DD 11 20 00 E0 38 46 ...
T412C 001:509.454   CPU_WriteMem(632 bytes @ 0x20002000)
T412C 001:512.835 - 3.443ms returns 0x278
T412C 001:565.037 JLINK_ReadMemEx(0x20000000, 0x4 Bytes, Flags = 0x02000000)
T412C 001:565.106   CPU_ReadMem(64 bytes @ 0x20000000)
T412C 001:566.187    -- Updating C cache (64 bytes @ 0x20000000)
T412C 001:566.235    -- Read from C cache (4 bytes @ 0x20000000)
T412C 001:566.245   Data:  20 64 01 20
T412C 001:566.254 - 1.219ms returns 4 (0x4)
T412C 001:566.321 JLINK_HasError()
T412C 001:566.330 JLINK_WriteReg(R13 (SP), 0x20016420)
T412C 001:566.340 - 0.013ms returns 0
T412C 001:566.349 JLINK_HasError()
T412C 001:566.356 JLINK_ReadReg(R0)
T412C 001:566.918 - 0.576ms returns 0x00000000
T412C 001:566.938 JLINK_ReadReg(R1)
T412C 001:566.945 - 0.009ms returns 0x00000000
T412C 001:566.952 JLINK_ReadReg(R2)
T412C 001:566.958 - 0.008ms returns 0x00000000
T412C 001:566.964 JLINK_ReadReg(R3)
T412C 001:566.970 - 0.008ms returns 0x00000000
T412C 001:566.977 JLINK_ReadReg(R4)
T412C 001:566.983 - 0.008ms returns 0x00000000
T412C 001:566.989 JLINK_ReadReg(R5)
T412C 001:566.995 - 0.008ms returns 0x00000000
T412C 001:567.002 JLINK_ReadReg(R6)
T412C 001:567.007 - 0.008ms returns 0x00000000
T412C 001:567.014 JLINK_ReadReg(R7)
T412C 001:567.020 - 0.008ms returns 0x00000000
T412C 001:567.026 JLINK_ReadReg(R8)
T412C 001:567.032 - 0.009ms returns 0x00000000
T412C 001:567.039 JLINK_ReadReg(R9)
T412C 001:567.045 - 0.008ms returns 0x00000000
T412C 001:567.051 JLINK_ReadReg(R10)
T412C 001:567.057 - 0.008ms returns 0x00000000
T412C 001:567.064 JLINK_ReadReg(R11)
T412C 001:567.070 - 0.008ms returns 0x00000000
T412C 001:567.076 JLINK_ReadReg(R12)
T412C 001:567.082 - 0.008ms returns 0x00000000
T412C 001:567.088 JLINK_ReadReg(R13 (SP))
T412C 001:567.095 - 0.009ms returns 0x20016420
T412C 001:567.101 JLINK_ReadReg(R14)
T412C 001:567.107 - 0.008ms returns 0xFFFFFFFF
T412C 001:567.113 JLINK_ReadReg(R15 (PC))
T412C 001:567.119 - 0.008ms returns 0x08000B2C
T412C 001:567.126 JLINK_ReadReg(XPSR)
T412C 001:567.132 - 0.008ms returns 0x01000000
T412C 001:567.138 JLINK_ReadReg(MSP)
T412C 001:567.144 - 0.008ms returns 0x20016420
T412C 001:567.151 JLINK_ReadReg(PSP)
T412C 001:567.157 - 0.008ms returns 0x00000000
T412C 001:567.163 JLINK_ReadReg(CFBP)
T412C 001:567.169 - 0.008ms returns 0x00000000
T412C 001:567.175 JLINK_ReadReg(FPSCR)
T412C 001:567.181 - 0.008ms returns 0x00000000
T412C 001:567.188 JLINK_ReadReg(FPS0)
T412C 001:567.194 - 0.009ms returns 0x00000000
T412C 001:567.200 JLINK_ReadReg(FPS1)
T412C 001:567.206 - 0.008ms returns 0x00000000
T412C 001:567.213 JLINK_ReadReg(FPS2)
T412C 001:567.219 - 0.008ms returns 0x00000000
T412C 001:567.225 JLINK_ReadReg(FPS3)
T412C 001:567.231 - 0.008ms returns 0x00000000
T412C 001:567.238 JLINK_ReadReg(FPS4)
T412C 001:567.244 - 0.008ms returns 0x00000000
T412C 001:567.250 JLINK_ReadReg(FPS5)
T412C 001:567.256 - 0.008ms returns 0x00000000
T412C 001:567.263 JLINK_ReadReg(FPS6)
T412C 001:567.268 - 0.008ms returns 0x00000000
T412C 001:567.275 JLINK_ReadReg(FPS7)
T412C 001:567.281 - 0.008ms returns 0x00000000
T412C 001:567.287 JLINK_ReadReg(FPS8)
T412C 001:567.293 - 0.008ms returns 0x00000000
T412C 001:567.300 JLINK_ReadReg(FPS9)
T412C 001:567.306 - 0.008ms returns 0x00000000
T412C 001:567.312 JLINK_ReadReg(FPS10)
T412C 001:567.318 - 0.009ms returns 0x00000000
T412C 001:567.325 JLINK_ReadReg(FPS11)
T412C 001:567.331 - 0.008ms returns 0x00000000
T412C 001:567.337 JLINK_ReadReg(FPS12)
T412C 001:567.343 - 0.008ms returns 0x00000000
T412C 001:567.349 JLINK_ReadReg(FPS13)
T412C 001:567.356 - 0.008ms returns 0x00000000
T412C 001:567.362 JLINK_ReadReg(FPS14)
T412C 001:567.368 - 0.008ms returns 0x00000000
T412C 001:567.374 JLINK_ReadReg(FPS15)
T412C 001:567.380 - 0.008ms returns 0x00000000
T412C 001:567.387 JLINK_ReadReg(FPS16)
T412C 001:567.393 - 0.008ms returns 0x00000000
T412C 001:567.399 JLINK_ReadReg(FPS17)
T412C 001:567.405 - 0.008ms returns 0x00000000
T412C 001:567.412 JLINK_ReadReg(FPS18)
T412C 001:567.418 - 0.008ms returns 0x00000000
T412C 001:567.424 JLINK_ReadReg(FPS19)
T412C 001:567.430 - 0.008ms returns 0x00000000
T412C 001:567.440 JLINK_ReadReg(FPS20)
T412C 001:567.447 - 0.010ms returns 0x00000000
T412C 001:567.454 JLINK_ReadReg(FPS21)
T412C 001:567.465 - 0.013ms returns 0x00000000
T412C 001:567.472 JLINK_ReadReg(FPS22)
T412C 001:567.479 - 0.009ms returns 0x00000000
T412C 001:567.485 JLINK_ReadReg(FPS23)
T412C 001:567.491 - 0.008ms returns 0x00000000
T412C 001:567.497 JLINK_ReadReg(FPS24)
T412C 001:567.502 - 0.008ms returns 0x00000000
T412C 001:567.508 JLINK_ReadReg(FPS25)
T412C 001:567.514 - 0.008ms returns 0x00000000
T412C 001:567.520 JLINK_ReadReg(FPS26)
T412C 001:567.525 - 0.008ms returns 0x00000000
T412C 001:567.531 JLINK_ReadReg(FPS27)
T412C 001:567.537 - 0.008ms returns 0x00000000
T412C 001:567.543 JLINK_ReadReg(FPS28)
T412C 001:567.548 - 0.008ms returns 0x00000000
T412C 001:567.554 JLINK_ReadReg(FPS29)
T412C 001:567.560 - 0.008ms returns 0x00000000
T412C 001:567.566 JLINK_ReadReg(FPS30)
T412C 001:567.571 - 0.008ms returns 0x00000000
T412C 001:567.577 JLINK_ReadReg(FPS31)
T412C 001:567.583 - 0.008ms returns 0x00000000
T412C 001:567.600 JLINK_ReadMemEx(0x20000004, 0x4 Bytes, Flags = 0x02000000)
T412C 001:567.609    -- Read from C cache (4 bytes @ 0x20000004)
T412C 001:567.617   Data:  2D 0F 00 20
T412C 001:567.625 - 0.026ms returns 4 (0x4)
T412C 001:567.631 JLINK_HasError()
T412C 001:567.638 JLINK_WriteReg(R15 (PC), 0x20000F2C)
T412C 001:567.644 - 0.009ms returns 0
T412C 001:567.651 JLINK_HasError()
T412C 001:567.657 JLINK_ReadReg(R0)
T412C 001:567.663 - 0.008ms returns 0x00000000
T412C 001:567.669 JLINK_ReadReg(R1)
T412C 001:567.675 - 0.008ms returns 0x00000000
T412C 001:567.681 JLINK_ReadReg(R2)
T412C 001:567.686 - 0.008ms returns 0x00000000
T412C 001:567.692 JLINK_ReadReg(R3)
T412C 001:567.698 - 0.008ms returns 0x00000000
T412C 001:567.704 JLINK_ReadReg(R4)
T412C 001:567.709 - 0.008ms returns 0x00000000
T412C 001:567.715 JLINK_ReadReg(R5)
T412C 001:567.721 - 0.008ms returns 0x00000000
T412C 001:567.727 JLINK_ReadReg(R6)
T412C 001:567.732 - 0.008ms returns 0x00000000
T412C 001:567.738 JLINK_ReadReg(R7)
T412C 001:567.744 - 0.008ms returns 0x00000000
T412C 001:567.750 JLINK_ReadReg(R8)
T412C 001:567.755 - 0.008ms returns 0x00000000
T412C 001:567.761 JLINK_ReadReg(R9)
T412C 001:567.767 - 0.008ms returns 0x00000000
T412C 001:567.773 JLINK_ReadReg(R10)
T412C 001:567.778 - 0.008ms returns 0x00000000
T412C 001:567.784 JLINK_ReadReg(R11)
T412C 001:567.790 - 0.008ms returns 0x00000000
T412C 001:567.796 JLINK_ReadReg(R12)
T412C 001:567.801 - 0.008ms returns 0x00000000
T412C 001:567.807 JLINK_ReadReg(R13 (SP))
T412C 001:567.813 - 0.008ms returns 0x20016420
T412C 001:567.819 JLINK_ReadReg(R14)
T412C 001:567.824 - 0.008ms returns 0xFFFFFFFF
T412C 001:567.830 JLINK_ReadReg(R15 (PC))
T412C 001:567.836 - 0.008ms returns 0x20000F2C
T412C 001:567.842 JLINK_ReadReg(XPSR)
T412C 001:567.848 - 0.008ms returns 0x01000000
T412C 001:567.854 JLINK_ReadReg(MSP)
T412C 001:567.859 - 0.008ms returns 0x20016420
T412C 001:567.865 JLINK_ReadReg(PSP)
T412C 001:567.871 - 0.008ms returns 0x00000000
T412C 001:567.877 JLINK_ReadReg(CFBP)
T412C 001:567.882 - 0.008ms returns 0x00000000
T412C 001:567.888 JLINK_ReadReg(FPSCR)
T412C 001:567.894 - 0.008ms returns 0x00000000
T412C 001:567.899 JLINK_ReadReg(FPS0)
T412C 001:567.905 - 0.008ms returns 0x00000000
T412C 001:567.911 JLINK_ReadReg(FPS1)
T412C 001:567.917 - 0.008ms returns 0x00000000
T412C 001:567.923 JLINK_ReadReg(FPS2)
T412C 001:567.928 - 0.008ms returns 0x00000000
T412C 001:567.934 JLINK_ReadReg(FPS3)
T412C 001:567.940 - 0.008ms returns 0x00000000
T412C 001:567.946 JLINK_ReadReg(FPS4)
T412C 001:567.951 - 0.008ms returns 0x00000000
T412C 001:567.957 JLINK_ReadReg(FPS5)
T412C 001:567.963 - 0.008ms returns 0x00000000
T412C 001:567.969 JLINK_ReadReg(FPS6)
T412C 001:567.974 - 0.008ms returns 0x00000000
T412C 001:567.980 JLINK_ReadReg(FPS7)
T412C 001:567.986 - 0.008ms returns 0x00000000
T412C 001:567.992 JLINK_ReadReg(FPS8)
T412C 001:567.997 - 0.008ms returns 0x00000000
T412C 001:568.003 JLINK_ReadReg(FPS9)
T412C 001:568.009 - 0.009ms returns 0x00000000
T412C 001:568.016 JLINK_ReadReg(FPS10)
T412C 001:568.022 - 0.008ms returns 0x00000000
T412C 001:568.028 JLINK_ReadReg(FPS11)
T412C 001:568.033 - 0.008ms returns 0x00000000
T412C 001:568.039 JLINK_ReadReg(FPS12)
T412C 001:568.045 - 0.008ms returns 0x00000000
T412C 001:568.051 JLINK_ReadReg(FPS13)
T412C 001:568.056 - 0.008ms returns 0x00000000
T412C 001:568.062 JLINK_ReadReg(FPS14)
T412C 001:568.068 - 0.008ms returns 0x00000000
T412C 001:568.074 JLINK_ReadReg(FPS15)
T412C 001:568.079 - 0.008ms returns 0x00000000
T412C 001:568.085 JLINK_ReadReg(FPS16)
T412C 001:568.090 - 0.008ms returns 0x00000000
T412C 001:568.096 JLINK_ReadReg(FPS17)
T412C 001:568.102 - 0.008ms returns 0x00000000
T412C 001:568.108 JLINK_ReadReg(FPS18)
T412C 001:568.113 - 0.008ms returns 0x00000000
T412C 001:568.119 JLINK_ReadReg(FPS19)
T412C 001:568.125 - 0.008ms returns 0x00000000
T412C 001:568.131 JLINK_ReadReg(FPS20)
T412C 001:568.136 - 0.008ms returns 0x00000000
T412C 001:568.142 JLINK_ReadReg(FPS21)
T412C 001:568.148 - 0.008ms returns 0x00000000
T412C 001:568.154 JLINK_ReadReg(FPS22)
T412C 001:568.159 - 0.008ms returns 0x00000000
T412C 001:568.167 JLINK_ReadReg(FPS23)
T412C 001:568.172 - 0.007ms returns 0x00000000
T412C 001:568.178 JLINK_ReadReg(FPS24)
T412C 001:568.183 - 0.008ms returns 0x00000000
T412C 001:568.189 JLINK_ReadReg(FPS25)
T412C 001:568.194 - 0.008ms returns 0x00000000
T412C 001:568.200 JLINK_ReadReg(FPS26)
T412C 001:568.206 - 0.008ms returns 0x00000000
T412C 001:568.212 JLINK_ReadReg(FPS27)
T412C 001:568.217 - 0.008ms returns 0x00000000
T412C 001:568.223 JLINK_ReadReg(FPS28)
T412C 001:568.228 - 0.008ms returns 0x00000000
T412C 001:568.234 JLINK_ReadReg(FPS29)
T412C 001:568.240 - 0.007ms returns 0x00000000
T412C 001:568.246 JLINK_ReadReg(FPS30)
T412C 001:568.251 - 0.008ms returns 0x00000000
T412C 001:568.257 JLINK_ReadReg(FPS31)
T412C 001:568.262 - 0.007ms returns 0x00000000
T412C 001:568.269 JLINK_WriteMemEx(0xE000ED08, 0x00000004 Bytes, Flags = 0x02000000)
T412C 001:568.275   Data:  00 00 00 20
T412C 001:568.287   CPU_WriteMem(4 bytes @ 0xE000ED08)
T412C 001:568.801 - 0.574ms returns 0x4
T412C 001:577.549 JLINK_HasError()
T412C 001:577.589 JLINK_ReadMemU32(0xE0001004, 0x1 Items)
T412C 001:577.609   Data:  00 00 00 00
T412C 001:577.621   Debug reg: DWT_CYCCNT
T412C 001:577.631 - 0.045ms returns 1 (0x1)
T412C 001:577.777 JLINK_ReadMemEx(0x4001224C, 0x3C Bytes, Flags = 0x02000000)
T412C 001:577.788   CPU_ReadMem(60 bytes @ 0x4001224C)
T412C 001:578.662   Data:  00 00 00 00 00 00 00 00 00 00 00 00 00 00 00 00 ...
T412C 001:578.687 - 0.912ms returns 60 (0x3C)
T412C 001:578.741 JLINK_ReadMemEx(0x40004800, 0x18 Bytes, Flags = 0x02000004)
T412C 001:578.756   CPU_ReadMem(24 bytes @ 0x40004800)
T412C 001:579.641   Data:  00 00 00 00 00 00 00 00 00 00 00 00 00 00 00 00 ...
T412C 001:579.690 - 0.952ms returns 24 (0x18)
T412C 001:579.707 JLINK_ReadMemEx(0x40004818, 0x4 Bytes, Flags = 0x02000004)
T412C 001:579.723   CPU_ReadMem(4 bytes @ 0x40004818)
T412C 001:580.306   Data:  00 00 00 00
T412C 001:580.323 - 0.618ms returns 4 (0x4)
T412C 001:580.537 JLINK_ReadMemEx(0x40021400, 0x14 Bytes, Flags = 0x02000004)
T412C 001:580.552   CPU_ReadMem(20 bytes @ 0x40021400)
T412C 001:581.275   Data:  00 00 00 00 00 00 00 00 00 00 00 00 00 00 00 00 ...
T412C 001:581.294 - 0.759ms returns 20 (0x14)
T412C 001:581.303 JLINK_ReadMemEx(0x40021414, 0x4 Bytes, Flags = 0x02000004)
T412C 001:581.314   CPU_ReadMem(4 bytes @ 0x40021414)
T412C 001:581.843   Data:  00 00 00 00
T412C 001:581.861 - 0.560ms returns 4 (0x4)
T412C 001:581.870 JLINK_ReadMemEx(0x4002141C, 0x8 Bytes, Flags = 0x02000004)
T412C 001:581.879   CPU_ReadMem(8 bytes @ 0x4002141C)
T412C 001:582.425   Data:  00 00 00 00 00 00 00 00
T412C 001:582.443 - 0.576ms returns 8 (0x8)
T412C 001:582.452 JLINK_ReadMemEx(0x40021424, 0x4 Bytes, Flags = 0x02000004)
T412C 001:582.461   CPU_ReadMem(4 bytes @ 0x40021424)
T412C 001:583.003   Data:  00 00 00 00
T412C 001:583.020 - 0.570ms returns 4 (0x4)
T412C 001:583.238 JLINK_ReadMemEx(0x40012200, 0x4C Bytes, Flags = 0x02000004)
T412C 001:583.257   CPU_ReadMem(76 bytes @ 0x40012200)
T412C 001:584.464   Data:  00 00 00 00 00 00 00 00 00 00 00 00 00 00 00 00 ...
T412C 001:584.483 - 1.247ms returns 76 (0x4C)
T412C 001:584.492 JLINK_ReadMemEx(0x4001224C, 0x4 Bytes, Flags = 0x02000004)
T412C 001:584.502   CPU_ReadMem(4 bytes @ 0x4001224C)
T412C 001:585.004   Data:  00 00 00 00
T412C 001:585.022 - 0.532ms returns 4 (0x4)
T412C 001:585.231 JLINK_ReadMemEx(0x40023800, 0x18 Bytes, Flags = 0x02000004)
T412C 001:585.245   CPU_ReadMem(24 bytes @ 0x40023800)
T412C 001:586.032   Data:  83 7B 00 00 10 30 00 24 00 00 00 00 00 00 00 00 ...
T412C 001:586.070 - 0.843ms returns 24 (0x18)
T412C 001:586.083 JLINK_ReadMemEx(0x40023818, 0x4 Bytes, Flags = 0x02000004)
